
**** 03/27/25 11:19:03 **** PSpice 24.1.0 (23 January 2025) *** ID# 0 ********

 ** Profile: "SCHEMATIC1-bias"  [ C:\Users Files\mjk\Coding\MobileSensorEngineering-JaemokAhn\week04-pspicefiles\schematic1\bias.sim 


 ****     CIRCUIT DESCRIPTION


******************************************************************************




** Creating circuit file "bias.cir" 
** WARNING: THIS AUTOMATICALLY GENERATED FILE MAY BE OVERWRITTEN BY SUBSEQUENT SIMULATIONS

*Libraries: 
* Profile Libraries :
* Local Libraries :
* From [PSPICE NETLIST] section of C:\Users\mjk\AppData\Roaming\SPB_Data\cdssetup\OrCAD_PSpice\24.1.0\PSpice.ini file:
.lib "nom.lib" 

*Analysis directives: 
.OPTIONS ADVCONV
.PROBE64 V(alias(*)) I(alias(*)) W(alias(*)) D(alias(*)) NOISE(alias(*)) 
.INC "..\SCHEMATIC1.net" 



**** INCLUDING SCHEMATIC1.net ****
* source WEEK04
X_U1         N14711 N14421 N14467 N14498 N14510 LM741
V_V1         N14498 0 -10Vdc
V_V2         N14467 0 10Vdc
R_R1         N14510 N14421  100k TC=0,0 
R_R2         N14421 0  1k TC=0,0 
V_V3         N14711 0  
+PULSE 0 0.01 0 10n 10n 400u 1000u

**** RESUMING bias.cir ****
.END

**** 03/27/25 11:19:03 **** PSpice 24.1.0 (23 January 2025) *** ID# 0 ********

 ** Profile: "SCHEMATIC1-bias"  [ C:\Users Files\mjk\Coding\MobileSensorEngineering-JaemokAhn\week04-pspicefiles\schematic1\bias.sim 


 ****     Diode MODEL PARAMETERS


******************************************************************************




               X_U1.x_lm741.dx X_U1.x_lm741.dy 
          IS  800.000000E-18  800.000000E-18 
          RS    1               1.000000E-03 
         CJO                   10.000000E-12 


**** 03/27/25 11:19:03 **** PSpice 24.1.0 (23 January 2025) *** ID# 0 ********

 ** Profile: "SCHEMATIC1-bias"  [ C:\Users Files\mjk\Coding\MobileSensorEngineering-JaemokAhn\week04-pspicefiles\schematic1\bias.sim 


 ****     BJT MODEL PARAMETERS


******************************************************************************




               X_U1.x_lm741.qx 
               NPN             
       LEVEL    1            
          IS  800.000000E-18 
          BF   93.75         
          NF    1            
          BR    1            
          NR    1            
         ISS    0            
          RE    0            
          RC    0            
         CJE    0            
         VJE     .75         
         CJC    0            
         VJC     .75         
         MJC     .33         
        XCJC    1            
         CJS    0            
         VJS     .75         
          KF    0            
          AF    1            
          CN    2.42         
           D     .87         


**** 03/27/25 11:19:03 **** PSpice 24.1.0 (23 January 2025) *** ID# 0 ********

 ** Profile: "SCHEMATIC1-bias"  [ C:\Users Files\mjk\Coding\MobileSensorEngineering-JaemokAhn\week04-pspicefiles\schematic1\bias.sim 


 ****     SMALL SIGNAL BIAS SOLUTION       TEMPERATURE =   27.000 DEG C


******************************************************************************



 NODE   VOLTAGE     NODE   VOLTAGE     NODE   VOLTAGE     NODE   VOLTAGE


(N14421) 19.20E-06 (N14467)   10.0000 (N14498)  -10.0000 (N14510)     .0099     

(N14711)    0.0000 (X_U1.x_lm741.6)-936.4E-09                                   

(X_U1.x_lm741.7)     .0099            (X_U1.x_lm741.8)     .0099                

(X_U1.x_lm741.9)    0.0000            (X_U1.x_lm741.10)    -.6077               

(X_U1.x_lm741.11)    9.9603           (X_U1.x_lm741.12)    9.9603               

(X_U1.x_lm741.13)    -.5938           (X_U1.x_lm741.14)    -.5938               

(X_U1.x_lm741.53)    9.0000           (X_U1.x_lm741.54)   -9.0000               

(X_U1.x_lm741.90) 98.97E-06           (X_U1.x_lm741.91)   40.0000               

(X_U1.x_lm741.92)  -40.0000           (X_U1.x_lm741.99)    0.0000           




    VOLTAGE SOURCE CURRENTS
    NAME         CURRENT

    V_V1         1.116E-03
    V_V2        -1.116E-03
    V_V3        -7.973E-08
    X_U1.x_lm741.vb  -9.364E-12
    X_U1.x_lm741.vc   8.991E-12
    X_U1.x_lm741.ve   1.024E-11
    X_U1.x_lm741.vlim   9.897E-08
    X_U1.x_lm741.vlp  -4.000E-11
    X_U1.x_lm741.vln  -4.000E-11

    TOTAL POWER DISSIPATION   2.23E-02  WATTS



          JOB CONCLUDED

**** 03/27/25 11:19:03 **** PSpice 24.1.0 (23 January 2025) *** ID# 0 ********

 ** Profile: "SCHEMATIC1-bias"  [ C:\Users Files\mjk\Coding\MobileSensorEngineering-JaemokAhn\week04-pspicefiles\schematic1\bias.sim 


 ****     JOB STATISTICS SUMMARY


******************************************************************************



  Total job time (using Solver 1)   =         .02
